PAS1\IEC 61850 Client\Interface\B403A212,B403A212,1997
34,8A,26D
1,VA,,1000,V,3.58676037131056890e+000,5.88213085196856990e+004,0.000000e+000,-99999,99998,1.000000e+000,1.000000e+000,S
2,VB,,1001,V,3.45171596650449740e+000,-5.88811894595167250e+004,0.000000e+000,-99999,99998,1.000000e+000,1.000000e+000,S
3,VC,,1002,V,6.21933375091626320e+000,-7.98811146131245190e+004,0.000000e+000,-99999,99998,1.000000e+000,1.000000e+000,S
4,VN,,1003,V,6.80341665198477940e+000,-2.11564076991740150e+004,0.000000e+000,-99999,99998,1.000000e+000,1.000000e+000,S
5,IA,,1004,A,5.96417799166987440e-002,-5.24563681100416940e+001,0.000000e+000,-99999,99998,1.000000e+000,1.000000e+000,S
6,IB,,1005,A,6.34539918798781990e-002,7.15501355995939780e+002,0.000000e+000,-99999,99998,1.000000e+000,1.000000e+000,S
7,IC,,1006,A,3.01109495642434620e-003,-2.51379715452521760e+002,0.000000e+000,-99999,99998,1.000000e+000,1.000000e+000,S
8,IN,,4,A,4.03044728570928560e-002,5.49743921236428830e+002,0.000000e+000,-99999,99998,1.000000e+000,1.000000e+000,S
1,MCB-R Open,,,0
2,MCB-Y Open,,,0
3,MCB-B Open,,,0
4,TCB-R Open,,,0
5,TCB-Y Open,,,0
6,TCB-B Open,,,0
7,M1_TRIP,,,0
8,Any Trip,,,0
9,M-AR Operated,,,0
10,T-AR Operated,,,0
11,M1/2_CR,,,0
12,M1/2_DEF_OPD,,,0
13,DT_RC_1/2,,,0
14,V>1 Trip,,,0
15,V>2 Trip,,,0
16,I>4 Trip,,,0
17,SOTF/TOR Trip,,,0
18,BB_OPD,,,0
19,M/T_LBB_OPD,,,0
20,M2Z1_OPD,,,0
21,M2Z2_OPD,,,0
22,M2Z3_OPD,,,0
23,M2ZR_OPD,,,0
24,CAR_AID_OPD,,,0
25,FSC Service,,,0
26,Any Start,,,0
50.0
0
0,3744
05/12/2017,10:54:07.769999
05/12/2017,10:54:08.359999
ASCII
1.000000
0000000001,0000000000,-17203,015304,017681,006217,000786,-11275,083484,-13776,1,1,1,1,1,1,0,0,0,0,0,0,0,0,0,0,0,0,0,0,0,0,0,0,0,0
0000000002,0000000833,-18370,015690,017757,005872,000786,-11188,083484,-13639,1,1,1,1,1,1,0,0,0,0,0,0,0,0,0,0,0,0,0,0,0,0,0,0,0,0
0000000003,0000001666,-19289,016342,017568,005541,000879,-11362,083484,-13776,1,1,1,1,1,1,0,0,0,0,0,0,0,0,0,0,0,0,0,0,0,0,0,0,0,0
0000000004,0000002499,-20093,016939,017008,004908,000972,-11188,083484,-13502,1,1,1,1,1,1,0,0,0,0,0,0,0,0,0,0,0,0,0,0,0,0,0,0,0,0
0000000005,0000003332,-20562,017609,016197,004260,000879,-11275,083484,-13776,1,1,1,1,1,1,0,0,0,0,0,0,0,0,0,0,0,0,0,0,0,0,0,0,0,0
0000000006,0000004165,-20924,018059,015071,003263,000972,-11188,083484,-13365,1,1,1,1,1,1,0,0,0,0,0,0,0,0,0,0,0,0,0,0,0,0,0,0,0,0
0000000007,0000004998,-20792,018665,013868,002545,001064,-11275,083484,-13365,1,1,1,1,1,1,0,0,0,0,0,0,0,0,0,0,0,0,0,0,0,0,0,0,0,0
0000000008,0000005831,-20509,019033,012563,001688,000972,-11275,083484,-13502,1,1,1,1,1,1,0,0,0,0,0,0,0,0,0,0,0,0,0,0,0,0,0,0,0,0
0000000009,0000006664,-19802,019345,011335,001101,000972,-11275,081649,-13776,1,1,1,1,1,1,0,0,0,0,0,0,0,0,0,0,0,0,0,0,0,0,0,0,0,0
0000000010,0000007497,-18900,019446,010198,000584,000972,-11275,087154,-13365,1,1,1,1,1,1,0,0,0,0,0,0,0,0,0,0,0,0,0,0,0,0,0,0,0,0
0000000011,0000008330,-17849,019418,009194,000202,000786,-11275,083484,-13776,1,1,1,1,1,1,0,0,0,0,0,0,0,0,0,0,0,0,0,0,0,0,0,0,0,0
0000000012,0000009163,-16708,019216,008450,000020,000879,-11275,083484,-13639,1,1,1,1,1,1,0,0,0,0,0,0,0,0,0,0,0,0,0,0,0,0,0,0,0,0
0000000013,0000009996,-15604,018812,008006,-00002,000786,-11275,085319,-13502,1,1,1,1,1,1,0,0,0,0,0,0,0,0,0,0,0,0,0,0,0,0,0,0,0,0
0000000014,0000010829,-14428,018417,007915,000332,000879,-11275,085319,-13639,1,1,1,1,1,1,0,0,0,0,0,0,0,0,0,0,0,0,0,0,0,0,0,0,0,0
0000000015,0000011662,-13518,017756,008103,000644,000786,-11188,083484,-13639,1,1,1,1,1,1,0,0,0,0,0,0,0,0,0,0,0,0,0,0,0,0,0,0,0,0
0000000016,0000012495,-12705,017177,008669,001297,000879,-11275,085319,-13502,1,1,1,1,1,1,0,0,0,0,0,0,0,0,0,0,0,0,0,0,0,0,0,0,0,0
0000000017,0000013328,-12227,016516,009474,001954,000972,-11362,081649,-13776,1,1,1,1,1,1,0,0,0,0,0,0,0,0,0,0,0,0,0,0,0,0,0,0,0,0
0000000018,0000014161,-11856,016085,010616,002974,000972,-11362,083484,-13639,1,1,1,1,1,1,0,0,0,0,0,0,0,0,0,0,0,0,0,0,0,0,0,0,0,0
0000000019,0000014994,-12024,015451,011794,003636,000972,-11275,083484,-13502,1,1,1,1,1,1,0,0,0,0,0,0,0,0,0,0,0,0,0,0,0,0,0,0,0,0
0000000020,0000015827,-12272,015083,013109,004526,000879,-11275,083484,-13639,1,1,1,1,1,1,0,0,0,0,0,0,0,0,0,0,0,0,0,0,0,0,0,0,0,0
0000000021,0000016660,-12988,014780,014337,005122,000879,-11275,083484,-13502,1,1,1,1,1,1,0,0,0,0,0,0,0,0,0,0,0,0,0,0,0,0,0,0,0,0
0000000022,0000017493,-13854,014670,015479,005644,000879,-11362,085319,-13639,1,1,1,1,1,1,0,0,0,0,0,0,0,0,0,0,0,0,0,0,0,0,0,0,0,0
0000000023,0000018326,-14941,014689,016478,006003,000972,-11188,083484,-13365,1,1,1,1,1,1,0,0,0,0,0,0,0,0,0,0,0,0,0,0,0,0,0,0,0,0
0000000024,0000019159,-16081,014872,017227,006175,000972,-11275,083484,-13365,1,1,1,1,1,1,0,0,0,0,0,0,0,0,0,0,0,0,0,0,0,0,0,0,0,0
0000000025,0000019992,-17177,015295,017670,006212,000879,-11275,083484,-13639,1,1,1,1,1,1,0,0,0,0,0,0,0,0,0,0,0,0,0,0,0,0,0,0,0,0
0000000026,0000020825,-18352,015690,017752,005877,000786,-11275,083484,-13776,1,1,1,1,1,1,0,0,0,0,0,0,0,0,0,0,0,0,0,0,0,0,0,0,0,0
0000000027,0000021658,-19271,016351,017584,005569,000879,-11362,081649,-13913,1,1,1,1,1,1,0,0,0,0,0,0,0,0,0,0,0,0,0,0,0,0,0,0,0,0
0000000028,0000022491,-20085,016939,017028,004931,000879,-11362,083484,-13776,1,1,1,1,1,1,0,0,0,0,0,0,0,0,0,0,0,0,0,0,0,0,0,0,0,0
0000000029,0000023324,-20544,017582,016223,004283,000879,-11188,083484,-13502,1,1,1,1,1,1,0,0,0,0,0,0,0,0,0,0,0,0,0,0,0,0,0,0,0,0
0000000030,0000024157,-20924,018041,015096,003277,000972,-11275,083484,-13502,1,1,1,1,1,1,0,0,0,0,0,0,0,0,0,0,0,0,0,0,0,0,0,0,0,0
0000000031,0000024990,-20774,018647,013909,002583,000972,-11188,083484,-13365,1,1,1,1,1,1,0,0,0,0,0,0,0,0,0,0,0,0,0,0,0,0,0,0,0,0
0000000032,0000025823,-20518,019023,012594,001702,000879,-11362,083484,-13639,1,1,1,1,1,1,0,0,0,0,0,0,0,0,0,0,0,0,0,0,0,0,0,0,0,0
0000000033,0000026656,-19828,019345,011365,001110,000879,-11275,083484,-13639,1,1,1,1,1,1,0,0,0,0,0,0,0,0,0,0,0,0,0,0,0,0,0,0,0,0
0000000034,0000027489,-18936,019437,010229,000588,000879,-11362,083484,-13776,1,1,1,1,1,1,0,0,0,0,0,0,0,0,0,0,0,0,0,0,0,0,0,0,0,0
0000000035,0000028322,-17875,019418,009220,000216,000879,-11362,083484,-13776,1,1,1,1,1,1,0,0,0,0,0,0,0,0,0,0,0,0,0,0,0,0,0,0,0,0
0000000036,0000029155,-16735,019235,008465,000034,000972,-11275,083484,-13502,1,1,1,1,1,1,0,0,0,0,0,0,0,0,0,0,0,0,0,0,0,0,0,0,0,0
0000000037,0000029988,-15621,018831,008012,000001,000972,-11362,081649,-13913,1,1,1,1,1,1,0,0,0,0,0,0,0,0,0,0,0,0,0,0,0,0,0,0,0,0
0000000038,0000030821,-14464,018436,007920,000327,000879,-11362,085319,-13639,1,1,1,1,1,1,0,0,0,0,0,0,0,0,0,0,0,0,0,0,0,0,0,0,0,0
0000000039,0000031654,-13544,017784,008093,000640,000972,-11362,085319,-13639,1,1,1,1,1,1,0,0,0,0,0,0,0,0,0,0,0,0,0,0,0,0,0,0,0,0
0000000040,0000032487,-12722,017205,008659,001292,000879,-11275,083484,-13639,1,1,1,1,1,1,0,0,0,0,0,0,0,0,0,0,0,0,0,0,0,0,0,0,0,0
0000000041,0000033320,-12254,016553,009454,001935,000879,-11275,083484,-13639,1,1,1,1,1,1,0,0,0,0,0,0,0,0,0,0,0,0,0,0,0,0,0,0,0,0
0000000042,0000034153,-11874,016103,010580,002946,000879,-11362,083484,-13776,1,1,1,1,1,1,0,0,0,0,0,0,0,0,0,0,0,0,0,0,0,0,0,0,0,0
0000000043,0000034986,-12015,015469,011763,003622,000972,-11188,081649,-13639,1,1,1,1,1,1,0,0,0,0,0,0,0,0,0,0,0,0,0,0,0,0,0,0,0,0
0000000044,0000035819,-12263,015093,013078,004507,000879,-11188,083484,-13502,1,1,1,1,1,1,0,0,0,0,0,0,0,0,0,0,0,0,0,0,0,0,0,0,0,0
0000000045,0000036652,-12961,014790,014311,005113,000879,-11275,081649,-13776,1,1,1,1,1,1,0,0,0,0,0,0,0,0,0,0,0,0,0,0,0,0,0,0,0,0
0000000046,0000037485,-13836,014679,015443,005625,000879,-11275,083484,-13502,1,1,1,1,1,1,0,0,0,0,0,0,0,0,0,0,0,0,0,0,0,0,0,0,0,0
0000000047,0000038318,-14914,014689,016452,005993,000879,-11188,083484,-13502,1,1,1,1,1,1,0,0,0,0,0,0,0,0,0,0,0,0,0,0,0,0,0,0,0,0
0000000048,0000039151,-16046,014872,017217,006184,000972,-11275,081649,-13639,1,1,1,1,1,1,0,0,0,0,0,0,0,0,0,0,0,0,0,0,0,0,0,0,0,0
0000000049,0000039984,-17168,015286,017665,006212,000879,-11275,083484,-13639,1,1,1,1,1,1,0,0,0,0,0,0,0,0,0,0,0,0,0,0,0,0,0,0,0,0
0000000050,0000040817,-18326,015662,017762,005886,000786,-11362,083484,-13776,1,1,1,1,1,1,0,0,0,0,0,0,0,0,0,0,0,0,0,0,0,0,0,0,0,0
0000000051,0000041650,-19245,016323,017594,005579,000879,-11275,083484,-13639,1,1,1,1,1,1,0,0,0,0,0,0,0,0,0,0,0,0,0,0,0,0,0,0,0,0
0000000052,0000042483,-20076,016893,017038,004922,000879,-11275,083484,-13776,1,1,1,1,1,1,0,0,0,0,0,0,0,0,0,0,0,0,0,0,0,0,0,0,0,0
0000000053,0000043316,-20544,017572,016248,004302,000879,-11188,083484,-13502,1,1,1,1,1,1,0,0,0,0,0,0,0,0,0,0,0,0,0,0,0,0,0,0,0,0
0000000054,0000044149,-20933,018022,015132,003296,000879,-11188,083484,-13502,1,1,1,1,1,1,0,0,0,0,0,0,0,0,0,0,0,0,0,0,0,0,0,0,0,0
0000000055,0000044982,-20792,018647,013939,002601,000879,-11275,081649,-13776,1,1,1,1,1,1,0,0,0,0,0,0,0,0,0,0,0,0,0,0,0,0,0,0,0,0
0000000056,0000045815,-20553,019005,012619,001702,000879,-11275,083484,-13639,1,1,1,1,1,1,0,0,0,0,0,0,0,0,0,0,0,0,0,0,0,0,0,0,0,0
0000000057,0000046648,-19837,019336,011386,001124,000879,-11362,083484,-13639,1,1,1,1,1,1,0,0,0,0,0,0,0,0,0,0,0,0,0,0,0,0,0,0,0,0
0000000058,0000047481,-18962,019437,010259,000602,000694,-11188,083484,-13776,1,1,1,1,1,1,0,0,0,0,0,0,0,0,0,0,0,0,0,0,0,0,0,0,0,0
0000000059,0000048314,-17893,019418,009235,000216,000786,-11275,083484,-13913,1,1,1,1,1,1,0,0,0,0,0,0,0,0,0,0,0,0,0,0,0,0,0,0,0,0
0000000060,0000049147,-16770,019235,008480,000029,000879,-11275,079814,-13913,1,1,1,1,1,1,0,0,0,0,0,0,0,0,0,0,0,0,0,0,0,0,0,0,0,0
0000000061,0000049980,-15657,018840,008027,000001,000972,-11362,083484,-13639,1,1,1,1,1,1,0,0,0,0,0,0,0,0,0,0,0,0,0,0,0,0,0,0,0,0
0000000062,0000050813,-14499,018454,007915,000314,000879,-11362,081649,-13776,1,1,1,1,1,1,0,0,0,0,0,0,0,0,0,0,0,0,0,0,0,0,0,0,0,0
0000000063,0000051646,-13562,017793,008093,000630,000972,-11362,083484,-13639,1,1,1,1,1,1,0,0,0,0,0,0,0,0,0,0,0,0,0,0,0,0,0,0,0,0
0000000064,0000052479,-12740,017214,008649,001278,000879,-11188,081649,-13639,1,1,1,1,1,1,0,0,0,0,0,0,0,0,0,0,0,0,0,0,0,0,0,0,0,0
0000000065,0000053312,-12263,016562,009428,001916,000879,-11362,083484,-13776,1,1,1,1,1,1,0,0,0,0,0,0,0,0,0,0,0,0,0,0,0,0,0,0,0,0
0000000066,0000054145,-11856,016103,010550,002927,000786,-11275,081649,-13913,1,1,1,1,1,1,0,0,0,0,0,0,0,0,0,0,0,0,0,0,0,0,0,0,0,0
0000000067,0000054978,-12007,015478,011737,003608,000879,-11275,083484,-13639,1,1,1,1,1,1,0,0,0,0,0,0,0,0,0,0,0,0,0,0,0,0,0,0,0,0
0000000068,0000055811,-12263,015111,013047,004488,000972,-11275,085319,-13502,1,1,1,1,1,1,0,0,0,0,0,0,0,0,0,0,0,0,0,0,0,0,0,0,0,0
0000000069,0000056644,-12952,014780,014281,005089,000879,-11275,083484,-13639,1,1,1,1,1,1,0,0,0,0,0,0,0,0,0,0,0,0,0,0,0,0,0,0,0,0
0000000070,0000057477,-13801,014689,015412,005625,000972,-11275,085319,-13365,1,1,1,1,1,1,0,0,0,0,0,0,0,0,0,0,0,0,0,0,0,0,0,0,0,0
0000000071,0000058310,-14897,014698,016442,005998,000879,-11362,085319,-13502,1,1,1,1,1,1,0,0,0,0,0,0,0,0,0,0,0,0,0,0,0,0,0,0,0,0
0000000072,0000059143,-16019,014863,017196,006175,000972,-11275,081649,-13639,1,1,1,1,1,1,0,0,0,0,0,0,0,0,0,0,0,0,0,0,0,0,0,0,0,0
0000000073,0000059976,-17133,015276,017660,006222,000786,-11362,083484,-13913,1,1,1,1,1,1,0,0,0,0,0,0,0,0,0,0,0,0,0,0,0,0,0,0,0,0
0000000074,0000060809,-18290,015644,017757,005891,000879,-11188,083484,-13502,1,1,1,1,1,1,0,0,0,0,0,0,0,0,0,0,0,0,0,0,0,0,0,0,0,0
0000000075,0000061642,-19218,016323,017594,005593,000972,-11362,079814,-13913,1,1,1,1,1,1,0,0,0,0,0,0,0,0,0,0,0,0,0,0,0,0,0,0,0,0
0000000076,0000062475,-20040,016902,017054,004959,000972,-11362,083484,-13639,1,1,1,1,1,1,0,0,0,0,0,0,0,0,0,0,0,0,0,0,0,0,0,0,0,0
0000000077,0000063308,-20518,017572,016274,004335,000972,-11188,081649,-13502,1,1,1,1,1,1,0,0,0,0,0,0,0,0,0,0,0,0,0,0,0,0,0,0,0,0
0000000078,0000064141,-20915,018004,015158,003324,000879,-11362,083484,-13639,1,1,1,1,1,1,0,0,0,0,0,0,0,0,0,0,0,0,0,0,0,0,0,0,0,0
0000000079,0000064974,-20792,018628,013970,002620,000786,-11362,083484,-13776,1,1,1,1,1,1,0,0,0,0,0,0,0,0,0,0,0,0,0,0,0,0,0,0,0,0
0000000080,0000065807,-20553,018977,012660,001730,000786,-11362,083484,-13776,1,1,1,1,1,1,0,0,0,0,0,0,0,0,0,0,0,0,0,0,0,0,0,0,0,0
0000000081,0000066640,-19855,019345,011427,001157,000972,-11275,081649,-13639,1,1,1,1,1,1,0,0,0,0,0,0,0,0,0,0,0,0,0,0,0,0,0,0,0,0
0000000082,0000067473,-19006,019427,010280,000593,000972,-11275,083484,-13502,1,1,1,1,1,1,0,0,0,0,0,0,0,0,0,0,0,0,0,0,0,0,0,0,0,0
0000000083,0000068306,-17919,019446,009270,000248,000879,-11188,083484,-13502,1,1,1,1,1,1,0,0,0,0,0,0,0,0,0,0,0,0,0,0,0,0,0,0,0,0
0000000084,0000069139,-16788,019225,008496,000029,000879,-11362,083484,-13776,1,1,1,1,1,1,0,0,0,0,0,0,0,0,0,0,0,0,0,0,0,0,0,0,0,0
0000000085,0000069972,-15692,018849,008022,-00016,000972,-11275,085319,-13502,1,1,1,1,1,1,0,0,0,0,0,0,0,0,0,0,0,0,0,0,0,0,0,0,0,0
0000000086,0000070805,-14517,018463,007920,000314,000879,-11188,083484,-13502,1,1,1,1,1,1,0,0,0,0,0,0,0,0,0,0,0,0,0,0,0,0,0,0,0,0
0000000087,0000071638,-13589,017820,008083,000626,000972,-11275,081649,-13639,1,1,1,1,1,1,0,0,0,0,0,0,0,0,0,0,0,0,0,0,0,0,0,0,0,0
0000000088,0000072471,-12731,017242,008628,001278,000786,-11275,083484,-13913,1,1,1,1,1,1,0,0,0,0,0,0,0,0,0,0,0,0,0,0,0,0,0,0,0,0
0000000089,0000073304,-12272,016562,009403,001888,000972,-11275,087154,-13365,1,1,1,1,1,1,0,0,0,0,0,0,0,0,0,0,0,0,0,0,0,0,0,0,0,0
0000000090,0000074137,-11883,016130,010519,002899,000786,-11275,083484,-13776,1,1,1,1,1,1,0,0,0,0,0,0,0,0,0,0,0,0,0,0,0,0,0,0,0,0
0000000091,0000074970,-12007,015488,011702,003584,000972,-11362,085319,-13502,1,1,1,1,1,1,0,0,0,0,0,0,0,0,0,0,0,0,0,0,0,0,0,0,0,0
0000000092,0000075803,-12236,015111,013017,004474,000879,-11275,083484,-13639,1,1,1,1,1,1,0,0,0,0,0,0,0,0,0,0,0,0,0,0,0,0,0,0,0,0
0000000093,0000076636,-12926,014790,014245,005071,000879,-11188,083484,-13639,1,1,1,1,1,1,0,0,0,0,0,0,0,0,0,0,0,0,0,0,0,0,0,0,0,0
0000000094,0000077469,-13783,014698,015387,005616,000786,-11362,083484,-13776,1,1,1,1,1,1,0,0,0,0,0,0,0,0,0,0,0,0,0,0,0,0,0,0,0,0
0000000095,0000078302,-14861,014689,016411,005984,000879,-11275,083484,-13639,1,1,1,1,1,1,0,0,0,0,0,0,0,0,0,0,0,0,0,0,0,0,0,0,0,0
0000000096,0000079135,-16001,014854,017176,006161,000786,-11275,083484,-13913,1,1,1,1,1,1,0,0,0,0,0,0,0,0,0,0,0,0,0,0,0,0,0,0,0,0
0000000097,0000079968,-17106,015267,017660,006231,000879,-11275,083484,-13639,1,1,1,1,1,1,0,0,0,0,0,0,0,0,0,0,0,0,0,0,0,0,0,0,0,0
0000000098,0000080801,-18264,015635,017757,005900,000972,-11188,083484,-13365,1,1,1,1,1,1,0,0,0,0,0,0,0,0,0,0,0,0,0,0,0,0,0,0,0,0
0000000099,0000081634,-19210,016305,017609,005602,000972,-11275,079814,-13776,1,1,1,1,1,1,0,0,0,0,0,0,0,0,0,0,0,0,0,0,0,0,0,0,0,0
0000000100,0000082467,-20023,016874,017064,004964,000972,-11362,081649,-13776,1,1,1,1,1,1,0,0,0,0,0,0,0,0,0,0,0,0,0,0,0,0,0,0,0,0
0000000101,0000083300,-20509,017545,016294,004349,000972,-11275,083484,-13502,1,1,1,1,1,1,0,0,0,0,0,0,0,0,0,0,0,0,0,0,0,0,0,0,0,0
0000000102,0000084133,-20933,017986,015183,003328,000786,-11275,081649,-13913,1,1,1,1,1,1,0,0,0,0,0,0,0,0,0,0,0,0,0,0,0,0,0,0,0,0
0000000103,0000084966,-20792,018592,014001,002629,000879,-11275,083484,-13776,1,1,1,1,1,1,0,0,0,0,0,0,0,0,0,0,0,0,0,0,0,0,0,0,0,0
0000000104,0000085799,-20562,018987,012691,001753,000879,-11275,083484,-13639,1,1,1,1,1,1,0,0,0,0,0,0,0,0,0,0,0,0,0,0,0,0,0,0,0,0
0000000105,0000086632,-19881,019326,011452,001157,000879,-11188,083484,-13639,1,1,1,1,1,1,0,0,0,0,0,0,0,0,0,0,0,0,0,0,0,0,0,0,0,0
0000000106,0000087465,-18989,019418,010310,000630,000972,-11275,083484,-13502,1,1,1,1,1,1,0,0,0,0,0,0,0,0,0,0,0,0,0,0,0,0,0,0,0,0
0000000107,0000088298,-17946,019446,009286,000253,000972,-11275,081649,-13639,1,1,1,1,1,1,0,0,0,0,0,0,0,0,0,0,0,0,0,0,0,0,0,0,0,0
0000000108,0000089131,-16814,019271,008506,000048,000879,-11275,083484,-13639,1,1,1,1,1,1,0,0,0,0,0,0,0,0,0,0,0,0,0,0,0,0,0,0,0,0
0000000109,0000089964,-15719,018867,008032,-00016,000972,-11362,081649,-13639,1,1,1,1,1,1,0,0,0,0,0,0,0,0,0,0,0,0,0,0,0,0,0,0,0,0
0000000110,0000090797,-14543,018482,007925,000309,000972,-11362,081649,-13776,1,1,1,1,1,1,0,0,0,0,0,0,0,0,0,0,0,0,0,0,0,0,0,0,0,0
0000000111,0000091630,-13624,017839,008068,000602,000972,-11362,081649,-13639,1,1,1,1,1,1,0,0,0,0,0,0,0,0,0,0,0,0,0,0,0,0,0,0,0,0
0000000112,0000092463,-12758,017242,008603,001241,000786,-11362,083484,-13913,1,1,1,1,1,1,0,0,0,0,0,0,0,0,0,0,0,0,0,0,0,0,0,0,0,0
0000000113,0000093296,-12281,016571,009383,001870,000879,-11362,081649,-13913,1,1,1,1,1,1,0,0,0,0,0,0,0,0,0,0,0,0,0,0,0,0,0,0,0,0
0000000114,0000094129,-11865,016140,010499,002895,000879,-11188,081649,-13639,1,1,1,1,1,1,0,0,0,0,0,0,0,0,0,0,0,0,0,0,0,0,0,0,0,0
0000000115,0000094962,-12015,015488,011671,003552,000972,-11275,083484,-13502,1,1,1,1,1,1,0,0,0,0,0,0,0,0,0,0,0,0,0,0,0,0,0,0,0,0
0000000116,0000095795,-12219,015111,012981,004456,000972,-11275,085319,-13502,1,1,1,1,1,1,0,0,0,0,0,0,0,0,0,0,0,0,0,0,0,0,0,0,0,0
0000000117,0000096628,-12917,014808,014225,005066,000972,-11275,083484,-13502,1,1,1,1,1,1,0,0,0,0,0,0,0,0,0,0,0,0,0,0,0,0,0,0,0,0
0000000118,0000097461,-13756,014707,015356,005607,000879,-11275,083484,-13639,1,1,1,1,1,1,0,0,0,0,0,0,0,0,0,0,0,0,0,0,0,0,0,0,0,0
0000000119,0000098294,-14835,014670,016391,005970,000972,-11275,081649,-13639,1,1,1,1,1,1,0,0,0,0,0,0,0,0,0,0,0,0,0,0,0,0,0,0,0,0
0000000120,0000099127,-15975,014863,017166,006170,000972,-11275,083484,-13639,1,1,1,1,1,1,0,0,0,0,0,0,0,0,0,0,0,0,0,0,0,0,0,0,0,0
0000000121,0000099960,-17053,015240,017650,006236,000879,-11362,085319,-13639,1,1,1,1,1,1,0,0,0,0,0,0,0,0,0,0,0,0,0,0,0,0,0,0,0,0
0000000122,0000100793,-18246,015625,017762,005905,000786,-11275,083484,-13639,1,1,1,1,1,1,0,0,0,0,0,0,0,0,0,0,0,0,0,0,0,0,0,0,0,0
0000000123,0000101626,-19183,016277,017619,005611,000972,-11362,085319,-13502,1,1,1,1,1,1,0,0,0,0,0,0,0,0,0,0,0,0,0,0,0,0,0,0,0,0
0000000124,0000102459,-20032,016847,017094,004973,000879,-11188,083484,-13502,1,1,1,1,1,1,0,0,0,0,0,0,0,0,0,0,0,0,0,0,0,0,0,0,0,0
0000000125,0000103292,-20500,017526,016330,004372,000879,-11275,083484,-13639,1,1,1,1,1,1,0,0,0,0,0,0,0,0,0,0,0,0,0,0,0,0,0,0,0,0
0000000126,0000104125,-20906,017976,015214,003365,000972,-11275,083484,-13502,1,1,1,1,1,1,0,0,0,0,0,0,0,0,0,0,0,0,0,0,0,0,0,0,0,0
0000000127,0000104958,-20800,018610,014026,002657,001064,-11275,083484,-13365,1,1,1,1,1,1,0,0,0,0,0,0,0,0,0,0,0,0,0,0,0,0,0,0,0,0
0000000128,0000105791,-20579,018968,012721,001763,001064,-11362,083484,-13502,1,1,1,1,1,1,0,0,0,0,0,0,0,0,0,0,0,0,0,0,0,0,0,0,0,0
0000000129,0000106624,-19917,019326,011477,001157,000879,-11188,083484,-13639,1,1,1,1,1,1,0,0,0,0,0,0,0,0,0,0,0,0,0,0,0,0,0,0,0,0
0000000130,0000107457,-19042,019427,010351,000640,000972,-11362,083484,-13639,1,1,1,1,1,1,0,0,0,0,0,0,0,0,0,0,0,0,0,0,0,0,0,0,0,0
0000000131,0000108290,-17999,019455,009306,000248,000879,-11275,081649,-13776,1,1,1,1,1,1,0,0,0,0,0,0,0,0,0,0,0,0,0,0,0,0,0,0,0,0
0000000132,0000109123,-16850,019253,008526,000039,000972,-11275,081649,-13502,1,1,1,1,1,1,0,0,0,0,0,0,0,0,0,0,0,0,0,0,0,0,0,0,0,0
0000000133,0000109956,-15736,018895,008042,-00002,000879,-11188,081649,-13639,1,1,1,1,1,1,0,0,0,0,0,0,0,0,0,0,0,0,0,0,0,0,0,0,0,0
0000000134,0000110789,-14570,018500,007925,000309,000879,-11275,083484,-13639,1,1,1,1,1,1,0,0,0,0,0,0,0,0,0,0,0,0,0,0,0,0,0,0,0,0
0000000135,0000111622,-13642,017848,008062,000593,000879,-11275,085319,-13502,1,1,1,1,1,1,0,0,0,0,0,0,0,0,0,0,0,0,0,0,0,0,0,0,0,0
0000000136,0000112455,-12775,017278,008593,001241,000879,-11275,085319,-13502,1,1,1,1,1,1,0,0,0,0,0,0,0,0,0,0,0,0,0,0,0,0,0,0,0,0
0000000137,0000113288,-12307,016580,009352,001832,000879,-11362,083484,-13776,1,1,1,1,1,1,0,0,0,0,0,0,0,0,0,0,0,0,0,0,0,0,0,0,0,0
0000000138,0000114121,-11883,016167,010458,002862,000972,-11275,083484,-13502,1,1,1,1,1,1,0,0,0,0,0,0,0,0,0,0,0,0,0,0,0,0,0,0,0,0
0000000139,0000114954,-11980,015497,011636,003547,000972,-11275,083484,-13502,1,1,1,1,1,1,0,0,0,0,0,0,0,0,0,0,0,0,0,0,0,0,0,0,0,0
0000000140,0000115787,-12210,015148,012951,004446,000879,-11362,081649,-13913,1,1,1,1,1,1,0,0,0,0,0,0,0,0,0,0,0,0,0,0,0,0,0,0,0,0
